
T17420 000:081 SEGGER J-Link V6.10i Log File (0001ms, 0022ms total)
T17420 000:081 DLL Compiled: Oct 25 2016 19:31:51 (0001ms, 0022ms total)
T17420 000:081 Logging started @ 2019-04-14 09:44 (0001ms, 0022ms total)
T17420 000:082 JLINK_SetWarnOutHandler(...) (0000ms, 0022ms total)
T17420 000:082 JLINK_OpenEx(...)
Firmware: J-Link ARM-OB STM32 compiled Aug 22 2012 19:52:04
Hardware: V7.00
S/N: 20090928
Feature(s): RDI,FlashDL,FlashBP,JFlash,GDBFullWEBSRV Webserver running on local port 19080 (0016ms, 0038ms total)
T17420 000:082   returns O.K. (0016ms, 0038ms total)
T17420 000:098 JLINK_SetErrorOutHandler(...) (0000ms, 0038ms total)
T17420 000:098 JLINK_ExecCommand("ProjectFile = "C:\Users\Dell\Desktop\MODBUS-RTU\JLinkSettings.ini"", ...).   returns 0x00 (0168ms, 0206ms total)
T17420 000:269 JLINK_ExecCommand("Device = STM32F103RC", ...). Device "STM32F103RC" selected.  returns 0x00 (0004ms, 0211ms total)
T17420 000:274 JLINK_ExecCommand("DisableConnectionTimeout", ...).   returns 0x01 (0000ms, 0211ms total)
T17420 000:274 JLINK_GetHardwareVersion()  returns 0x11170 (0000ms, 0211ms total)
T17420 000:274 JLINK_GetDLLVersion()  returns 61009 (0000ms, 0211ms total)
T17420 000:275 JLINK_GetFirmwareString(...) (0000ms, 0211ms total)
T17420 000:287 JLINK_GetDLLVersion()  returns 61009 (0000ms, 0211ms total)
T17420 000:287 JLINK_GetCompileDateTime() (0001ms, 0212ms total)
T17420 000:295 JLINK_GetFirmwareString(...) (0000ms, 0212ms total)
T17420 000:299 JLINK_GetHardwareVersion()  returns 0x11170 (0000ms, 0212ms total)
T17420 000:317 JLINK_TIF_Select(JLINKARM_TIF_SWD)  returns 0x00 (0001ms, 0213ms total)
T17420 000:318 JLINK_SetSpeed(5000) (0000ms, 0213ms total)
T17420 000:318 JLINK_GetId() >0x108 TIF>Found SWD-DP with ID 0x1BA01477 >0x0D TIF> >0x28 TIF> >0x0D TIF> >0x28 TIF> >0x0D TIF> >0x28 TIF> >0x0D TIF> >0x28 TIF> >0x0D TIF> >0x21 TIF> >0x0D TIF> >0x28 TIF> >0x0D TIF> >0x28 TIF> >0x0D TIF> >0x28 TIF> >0x0D TIF> >0x21 TIF> >0x0D TIF> >0x21 TIF> >0x0D TIF> >0x28 TIF> >0x0D TIF> >0x21 TIF> >0x0D TIF> >0x21 TIF> >0x0D TIF> >0x28 TIF> >0x0D TIF> >0x21 TIF> >0x0D TIF> >0x21 TIF> >0x0D TIF> >0x28 TIF> >0x0D TIF> >0x21 TIF> >0x0D TIF> >0x21 TIF> >0x0D TIF>
 >0x28 TIF> >0x0D TIF> >0x21 TIF> >0x0D TIF> >0x21 TIF> >0x0D TIF> >0x28 TIF> >0x0D TIF> >0x21 TIF> >0x0D TIF> >0x21 TIF> >0x0D TIF> >0x28 TIF> >0x0D TIF> >0x21 TIF> >0x0D TIF> >0x21 TIF> >0x108 TIF>Found SWD-DP with ID 0x1BA01477 >0x0D TIF> >0x28 TIF> >0x0D TIF> >0x28 TIF> >0x0D TIF> >0x28 TIF> >0x0D TIF> >0x28 TIF> >0x0D TIF> >0x21 TIF> >0x0D TIF> >0x28 TIF> >0x0D TIF> >0x28 TIF> >0x0D TIF> >0x21 TIF> >0x0D TIF> >0x21 TIF> >0x0D TIF> >0x21 TIF>AP-IDR: 0x14770011, Type: AHB-AP >0x0D TIF> >0x28 TIF>
 >0x0D TIF> >0x28 TIF> >0x0D TIF> >0x28 TIF> >0x0D TIF> >0x21 TIF> >0x0D TIF> >0x21 TIF> >0x0D TIF> >0x28 TIF> >0x0D TIF> >0x21 TIF> >0x0D TIF> >0x21 TIF>Found Cortex-M3 r1p1, Little endian. -- CPU_ReadMem(4 bytes @ 0xE000EDF0) -- CPU_WriteMem(4 bytes @ 0xE000EDF0) -- CPU_ReadMem(4 bytes @ 0xE0002000)FPUnit: 6 code (BP) slots and 2 literal slots -- CPU_ReadMem(4 bytes @ 0xE000EDFC) -- CPU_WriteMem(4 bytes @ 0xE000EDFC) -- CPU_ReadMem(4 bytes @ 0xE0001000) -- CPU_WriteMem(4 bytes @ 0xE0001000)
 -- CPU_ReadMem(4 bytes @ 0xE000ED88) -- CPU_WriteMem(4 bytes @ 0xE000ED88) -- CPU_ReadMem(4 bytes @ 0xE000ED88) -- CPU_WriteMem(4 bytes @ 0xE000ED88)CoreSight components:ROMTbl 0 @ E00FF000 -- CPU_ReadMem(16 bytes @ 0xE00FF000) -- CPU_ReadMem(16 bytes @ 0xE000EFF0) -- CPU_ReadMem(16 bytes @ 0xE000EFE0)ROMTbl 0 [0]: FFF0F000, CID: B105E00D, PID: 001BB000 SCS -- CPU_ReadMem(16 bytes @ 0xE0001FF0) -- CPU_ReadMem(16 bytes @ 0xE0001FE0)ROMTbl 0 [1]: FFF02000, CID: B105E00D, PID: 001BB002 DWT
 -- CPU_ReadMem(16 bytes @ 0xE0002FF0) -- CPU_ReadMem(16 bytes @ 0xE0002FE0)ROMTbl 0 [2]: FFF03000, CID: B105E00D, PID: 000BB003 FPB -- CPU_ReadMem(16 bytes @ 0xE0000FF0) -- CPU_ReadMem(16 bytes @ 0xE0000FE0)ROMTbl 0 [3]: FFF01000, CID: B105E00D, PID: 001BB001 ITM -- CPU_ReadMem(16 bytes @ 0xE00FF010) -- CPU_ReadMem(16 bytes @ 0xE0040FF0) -- CPU_ReadMem(16 bytes @ 0xE0040FE0)ROMTbl 0 [4]: FFF41000, CID: B105900D, PID: 001BB923 TPIU-Lite -- CPU_ReadMem(16 bytes @ 0xE0041FF0)
 -- CPU_ReadMem(16 bytes @ 0xE0041FE0)ROMTbl 0 [5]: FFF42000, CID: B105900D, PID: 101BB924 ETM-M3 >0x0D TIF> >0x21 TIF>  returns 0x1BA01477 (0122ms, 0335ms total)
T17420 000:440 JLINK_GetDLLVersion()  returns 61009 (0000ms, 0335ms total)
T17420 000:440 JLINK_CORE_GetFound()  returns 0x30000FF (0000ms, 0335ms total)
T17420 000:440 JLINK_GetDebugInfo(0x100) -- Value=0xE00FF000  returns 0x00 (0000ms, 0335ms total)
T17420 000:443 JLINK_GetDebugInfo(0x100) -- Value=0xE00FF000  returns 0x00 (0000ms, 0335ms total)
T17420 000:443 JLINK_GetDebugInfo(0x101) -- Value=0xE0041000  returns 0x00 (0000ms, 0335ms total)
T17420 000:443 JLINK_GetDebugInfo(0x102) -- Value=0x00000000  returns 0x00 (0000ms, 0335ms total)
T17420 000:443 JLINK_GetDebugInfo(0x103) -- Value=0xE0040000  returns 0x00 (0000ms, 0335ms total)
T17420 000:443 JLINK_GetDebugInfo(0x104) -- Value=0xE0000000  returns 0x00 (0001ms, 0336ms total)
T17420 000:444 JLINK_GetDebugInfo(0x105) -- Value=0xE0001000  returns 0x00 (0000ms, 0336ms total)
T17420 000:444 JLINK_GetDebugInfo(0x106) -- Value=0xE0002000  returns 0x00 (0000ms, 0336ms total)
T17420 000:444 JLINK_GetDebugInfo(0x107) -- Value=0xE000E000  returns 0x00 (0000ms, 0336ms total)
T17420 000:444 JLINK_GetDebugInfo(0x10C) -- Value=0xE000EDF0  returns 0x00 (0000ms, 0336ms total)
T17420 000:444 JLINK_ReadMemU32(0xE000ED00, 0x0001 Items, ...) -- CPU is running -- CPU_ReadMem(4 bytes @ 0xE000ED00) - Data: 31 C2 1F 41  returns 0x01 (0001ms, 0337ms total)
T17420 000:445 JLINK_SetResetType(JLINKARM_RESET_TYPE_NORMAL)  returns JLINKARM_RESET_TYPE_NORMAL (0000ms, 0337ms total)
T17420 000:445 JLINK_Reset() -- CPU is running -- CPU_WriteMem(4 bytes @ 0xE000EDF0) -- CPU is running -- CPU_WriteMem(4 bytes @ 0xE000EDFC) >0x35 TIF> -- CPU is running -- CPU_WriteMem(4 bytes @ 0xE000ED0C) -- CPU is running -- CPU_ReadMem(4 bytes @ 0xE000EDF0) -- CPU is running -- CPU_ReadMem(4 bytes @ 0xE000EDF0) -- CPU is running -- CPU_WriteMem(4 bytes @ 0xE000EDF0) -- CPU is running -- CPU_WriteMem(4 bytes @ 0xE000EDFC) -- CPU is running -- CPU_ReadMem(4 bytes @ 0xE000EDF0)
 -- CPU_WriteMem(4 bytes @ 0xE0002000) -- CPU_ReadMem(4 bytes @ 0xE000EDFC) -- CPU_ReadMem(4 bytes @ 0xE0001000) (0021ms, 0358ms total)
T17420 000:466 JLINK_Halt()  returns 0x00 (0000ms, 0358ms total)
T17420 000:466 JLINK_IsHalted()  returns TRUE (0000ms, 0358ms total)
T17420 000:466 JLINK_ReadMemU32(0xE000EDF0, 0x0001 Items, ...) -- CPU_ReadMem(4 bytes @ 0xE000EDF0) - Data: 03 00 03 00  returns 0x01 (0001ms, 0359ms total)
T17420 000:467 JLINK_WriteU32(0xE000EDF0, 0xA05F0003) -- CPU_WriteMem(4 bytes @ 0xE000EDF0)  returns 0x00 (0000ms, 0359ms total)
T17420 000:467 JLINK_WriteU32(0xE000EDFC, 0x01000000) -- CPU_WriteMem(4 bytes @ 0xE000EDFC)  returns 0x00 (0001ms, 0360ms total)
T17420 000:484 JLINK_GetHWStatus(...)  returns 0x00 (0000ms, 0360ms total)
T17420 000:499 JLINK_GetNumBPUnits(Type = 0xFFFFFF00)  returns 0x06 (0000ms, 0360ms total)
T17420 000:499 JLINK_GetNumBPUnits(Type = 0xF0)  returns 0x2000 (0000ms, 0360ms total)
T17420 000:499 JLINK_GetNumWPUnits()  returns 0x04 (0000ms, 0360ms total)
T17420 000:508 JLINK_GetSpeed()  returns 0xFA0 (0000ms, 0360ms total)
T17420 000:521 JLINK_ReadMemU32(0xE000E004, 0x0001 Items, ...) -- CPU_ReadMem(4 bytes @ 0xE000E004) - Data: 01 00 00 00  returns 0x01 (0001ms, 0361ms total)
T17420 000:522 JLINK_ReadMemU32(0xE000E004, 0x0001 Items, ...) -- CPU_ReadMem(4 bytes @ 0xE000E004) - Data: 01 00 00 00  returns 0x01 (0001ms, 0362ms total)
T17420 000:523 JLINK_WriteMem(0xE0001000, 0x001C Bytes, ...) - Data: 01 00 00 00 00 00 00 00 00 00 00 00 00 00 00 00 ... -- CPU_WriteMem(28 bytes @ 0xE0001000)  returns 0x1C (0002ms, 0364ms total)
T17420 000:525 JLINK_ReadMem (0xE0001000, 0x001C Bytes, ...) -- CPU_ReadMem(28 bytes @ 0xE0001000) - Data: 01 00 00 40 00 00 00 00 00 00 00 00 00 00 00 00 ...  returns 0x00 (0001ms, 0365ms total)
T17420 000:526 JLINK_Halt()  returns 0x00 (0000ms, 0365ms total)
T17420 000:526 JLINK_IsHalted()  returns TRUE (0000ms, 0365ms total)
T17420 000:545 JLINK_WriteMem(0x20000000, 0x0164 Bytes, ...) - Data: 00 BE 0A E0 0D 78 2D 06 68 40 08 24 40 00 00 D3 ... -- CPU_WriteMem(356 bytes @ 0x20000000)  returns 0x164 (0007ms, 0372ms total)
T17420 000:552 JLINK_WriteReg(R0, 0x08000000)  returns 0x00 (0000ms, 0372ms total)
T17420 000:552 JLINK_WriteReg(R1, 0x00B71B00)  returns 0x00 (0000ms, 0372ms total)
T17420 000:552 JLINK_WriteReg(R2, 0x00000001)  returns 0x00 (0000ms, 0372ms total)
T17420 000:552 JLINK_WriteReg(R3, 0x00000000)  returns 0x00 (0000ms, 0372ms total)
T17420 000:553 JLINK_WriteReg(R4, 0x00000000)  returns 0x00 (0000ms, 0372ms total)
T17420 000:553 JLINK_WriteReg(R5, 0x00000000)  returns 0x00 (0000ms, 0372ms total)
T17420 000:553 JLINK_WriteReg(R6, 0x00000000)  returns 0x00 (0000ms, 0372ms total)
T17420 000:553 JLINK_WriteReg(R7, 0x00000000)  returns 0x00 (0000ms, 0372ms total)
T17420 000:553 JLINK_WriteReg(R8, 0x00000000)  returns 0x00 (0000ms, 0372ms total)
T17420 000:553 JLINK_WriteReg(R9, 0x20000160)  returns 0x00 (0000ms, 0372ms total)
T17420 000:553 JLINK_WriteReg(R10, 0x00000000)  returns 0x00 (0000ms, 0372ms total)
T17420 000:553 JLINK_WriteReg(R11, 0x00000000)  returns 0x00 (0000ms, 0372ms total)
T17420 000:553 JLINK_WriteReg(R12, 0x00000000)  returns 0x00 (0000ms, 0372ms total)
T17420 000:553 JLINK_WriteReg(R13 (SP), 0x20000800)  returns 0x00 (0000ms, 0372ms total)
T17420 000:553 JLINK_WriteReg(R14, 0x20000001)  returns 0x00 (0000ms, 0372ms total)
T17420 000:553 JLINK_WriteReg(R15 (PC), 0x20000038)  returns 0x00 (0000ms, 0372ms total)
T17420 000:553 JLINK_WriteReg(XPSR, 0x01000000)  returns 0x00 (0000ms, 0372ms total)
T17420 000:553 JLINK_WriteReg(MSP, 0x20000800)  returns 0x00 (0000ms, 0372ms total)
T17420 000:553 JLINK_WriteReg(PSP, 0x20000800)  returns 0x00 (0000ms, 0372ms total)
T17420 000:553 JLINK_WriteReg(CFBP, 0x00000000)  returns 0x00 (0000ms, 0372ms total)
T17420 000:553 JLINK_SetBPEx(Addr = 0x20000000, Type = 0xFFFFFFF2) -- CPU_ReadMem(2 bytes @ 0x20000000)  returns 0x00000001 (0001ms, 0373ms total)
T17420 000:554 JLINK_Go() -- CPU_WriteMem(2 bytes @ 0x20000000) -- CPU_ReadMem(4 bytes @ 0xE0001000) -- CPU_WriteMem(4 bytes @ 0xE0002008) -- CPU_WriteMem(4 bytes @ 0xE000200C) -- CPU_WriteMem(4 bytes @ 0xE0002010) -- CPU_WriteMem(4 bytes @ 0xE0002014) -- CPU_WriteMem(4 bytes @ 0xE0002018) -- CPU_WriteMem(4 bytes @ 0xE000201C) -- CPU_WriteMem(4 bytes @ 0xE0001004) (0007ms, 0380ms total)
T17420 000:561 JLINK_IsHalted() -- CPU_ReadMem(2 bytes @ 0x20000000)  returns TRUE (0005ms, 0385ms total)
T17420 000:566 JLINK_ReadReg(R15 (PC))  returns 0x20000000 (0000ms, 0380ms total)
T17420 000:566 JLINK_ClrBPEx(BPHandle = 0x00000001)  returns 0x00 (0000ms, 0380ms total)
T17420 000:566 JLINK_ReadReg(R0)  returns 0x00000000 (0000ms, 0380ms total)
T17420 000:567 JLINK_WriteReg(R0, 0x08000000)  returns 0x00 (0001ms, 0381ms total)
T17420 000:568 JLINK_WriteReg(R1, 0x00B71B00)  returns 0x00 (0000ms, 0381ms total)
T17420 000:568 JLINK_WriteReg(R2, 0x00000001)  returns 0x00 (0000ms, 0381ms total)
T17420 000:568 JLINK_WriteReg(R3, 0x00000000)  returns 0x00 (0000ms, 0381ms total)
T17420 000:568 JLINK_WriteReg(R4, 0x00000000)  returns 0x00 (0000ms, 0381ms total)
T17420 000:568 JLINK_WriteReg(R5, 0x00000000)  returns 0x00 (0000ms, 0381ms total)
T17420 000:568 JLINK_WriteReg(R6, 0x00000000)  returns 0x00 (0000ms, 0381ms total)
T17420 000:568 JLINK_WriteReg(R7, 0x00000000)  returns 0x00 (0000ms, 0381ms total)
T17420 000:568 JLINK_WriteReg(R8, 0x00000000)  returns 0x00 (0000ms, 0381ms total)
T17420 000:568 JLINK_WriteReg(R9, 0x20000160)  returns 0x00 (0000ms, 0381ms total)
T17420 000:568 JLINK_WriteReg(R10, 0x00000000)  returns 0x00 (0000ms, 0381ms total)
T17420 000:568 JLINK_WriteReg(R11, 0x00000000)  returns 0x00 (0000ms, 0381ms total)
T17420 000:568 JLINK_WriteReg(R12, 0x00000000)  returns 0x00 (0000ms, 0381ms total)
T17420 000:568 JLINK_WriteReg(R13 (SP), 0x20000800)  returns 0x00 (0000ms, 0381ms total)
T17420 000:568 JLINK_WriteReg(R14, 0x20000001)  returns 0x00 (0000ms, 0381ms total)
T17420 000:568 JLINK_WriteReg(R15 (PC), 0x2000007C)  returns 0x00 (0000ms, 0381ms total)
T17420 000:568 JLINK_WriteReg(XPSR, 0x01000000)  returns 0x00 (0000ms, 0381ms total)
T17420 000:568 JLINK_WriteReg(MSP, 0x20000800)  returns 0x00 (0000ms, 0381ms total)
T17420 000:568 JLINK_WriteReg(PSP, 0x20000800)  returns 0x00 (0001ms, 0382ms total)
T17420 000:569 JLINK_WriteReg(CFBP, 0x00000000)  returns 0x00 (0000ms, 0382ms total)
T17420 000:569 JLINK_SetBPEx(Addr = 0x20000000, Type = 0xFFFFFFF2)  returns 0x00000002 (0000ms, 0382ms total)
T17420 000:569 JLINK_Go() -- CPU_ReadMem(4 bytes @ 0xE0001000) (0002ms, 0384ms total)
T17420 000:571 JLINK_IsHalted()  returns FALSE (0001ms, 0385ms total)
T17420 000:747 JLINK_IsHalted() -- CPU_ReadMem(2 bytes @ 0x20000000)  returns TRUE (0004ms, 0388ms total)
T17420 000:751 JLINK_ReadReg(R15 (PC))  returns 0x20000000 (0000ms, 0384ms total)
T17420 000:751 JLINK_ClrBPEx(BPHandle = 0x00000002)  returns 0x00 (0000ms, 0384ms total)
T17420 000:751 JLINK_ReadReg(R0)  returns 0x00000000 (0000ms, 0384ms total)
T17420 000:805 JLINK_WriteReg(R0, 0x00000001)  returns 0x00 (0001ms, 0385ms total)
T17420 000:806 JLINK_WriteReg(R1, 0x00B71B00)  returns 0x00 (0000ms, 0385ms total)
T17420 000:806 JLINK_WriteReg(R2, 0x00000001)  returns 0x00 (0000ms, 0385ms total)
T17420 000:806 JLINK_WriteReg(R3, 0x00000000)  returns 0x00 (0000ms, 0385ms total)
T17420 000:806 JLINK_WriteReg(R4, 0x00000000)  returns 0x00 (0000ms, 0385ms total)
T17420 000:806 JLINK_WriteReg(R5, 0x00000000)  returns 0x00 (0000ms, 0385ms total)
T17420 000:806 JLINK_WriteReg(R6, 0x00000000)  returns 0x00 (0000ms, 0385ms total)
T17420 000:806 JLINK_WriteReg(R7, 0x00000000)  returns 0x00 (0000ms, 0385ms total)
T17420 000:806 JLINK_WriteReg(R8, 0x00000000)  returns 0x00 (0000ms, 0385ms total)
T17420 000:806 JLINK_WriteReg(R9, 0x20000160)  returns 0x00 (0000ms, 0385ms total)
T17420 000:806 JLINK_WriteReg(R10, 0x00000000)  returns 0x00 (0000ms, 0385ms total)
T17420 000:806 JLINK_WriteReg(R11, 0x00000000)  returns 0x00 (0000ms, 0385ms total)
T17420 000:806 JLINK_WriteReg(R12, 0x00000000)  returns 0x00 (0000ms, 0385ms total)
T17420 000:806 JLINK_WriteReg(R13 (SP), 0x20000800)  returns 0x00 (0000ms, 0385ms total)
T17420 000:806 JLINK_WriteReg(R14, 0x20000001)  returns 0x00 (0000ms, 0385ms total)
T17420 000:806 JLINK_WriteReg(R15 (PC), 0x2000006A)  returns 0x00 (0000ms, 0385ms total)
T17420 000:806 JLINK_WriteReg(XPSR, 0x01000000)  returns 0x00 (0000ms, 0385ms total)
T17420 000:806 JLINK_WriteReg(MSP, 0x20000800)  returns 0x00 (0000ms, 0385ms total)
T17420 000:806 JLINK_WriteReg(PSP, 0x20000800)  returns 0x00 (0000ms, 0385ms total)
T17420 000:806 JLINK_WriteReg(CFBP, 0x00000000)  returns 0x00 (0001ms, 0386ms total)
T17420 000:807 JLINK_SetBPEx(Addr = 0x20000000, Type = 0xFFFFFFF2)  returns 0x00000003 (0000ms, 0386ms total)
T17420 000:807 JLINK_Go() -- CPU_ReadMem(4 bytes @ 0xE0001000) (0002ms, 0388ms total)
T17420 000:809 JLINK_IsHalted() -- CPU_ReadMem(2 bytes @ 0x20000000)  returns TRUE (0004ms, 0392ms total)
T17420 000:813 JLINK_ReadReg(R15 (PC))  returns 0x20000000 (0000ms, 0388ms total)
T17420 000:813 JLINK_ClrBPEx(BPHandle = 0x00000003)  returns 0x00 (0000ms, 0388ms total)
T17420 000:813 JLINK_ReadReg(R0)  returns 0x00000000 (0000ms, 0388ms total)
T17420 000:832 JLINK_WriteMem(0x20000000, 0x0164 Bytes, ...) - Data: 00 BE 0A E0 0D 78 2D 06 68 40 08 24 40 00 00 D3 ... -- CPU_WriteMem(356 bytes @ 0x20000000)  returns 0x164 (0005ms, 0393ms total)
T17420 000:837 JLINK_WriteReg(R0, 0x08000000)  returns 0x00 (0000ms, 0393ms total)
T17420 000:837 JLINK_WriteReg(R1, 0x00B71B00)  returns 0x00 (0000ms, 0393ms total)
T17420 000:837 JLINK_WriteReg(R2, 0x00000002)  returns 0x00 (0000ms, 0393ms total)
T17420 000:837 JLINK_WriteReg(R3, 0x00000000)  returns 0x00 (0000ms, 0393ms total)
T17420 000:837 JLINK_WriteReg(R4, 0x00000000)  returns 0x00 (0000ms, 0393ms total)
T17420 000:837 JLINK_WriteReg(R5, 0x00000000)  returns 0x00 (0000ms, 0393ms total)
T17420 000:837 JLINK_WriteReg(R6, 0x00000000)  returns 0x00 (0000ms, 0393ms total)
T17420 000:837 JLINK_WriteReg(R7, 0x00000000)  returns 0x00 (0000ms, 0393ms total)
T17420 000:837 JLINK_WriteReg(R8, 0x00000000)  returns 0x00 (0000ms, 0393ms total)
T17420 000:837 JLINK_WriteReg(R9, 0x20000160)  returns 0x00 (0000ms, 0393ms total)
T17420 000:837 JLINK_WriteReg(R10, 0x00000000)  returns 0x00 (0000ms, 0393ms total)
T17420 000:837 JLINK_WriteReg(R11, 0x00000000)  returns 0x00 (0000ms, 0393ms total)
T17420 000:837 JLINK_WriteReg(R12, 0x00000000)  returns 0x00 (0001ms, 0394ms total)
T17420 000:838 JLINK_WriteReg(R13 (SP), 0x20000800)  returns 0x00 (0000ms, 0394ms total)
T17420 000:838 JLINK_WriteReg(R14, 0x20000001)  returns 0x00 (0000ms, 0394ms total)
T17420 000:838 JLINK_WriteReg(R15 (PC), 0x20000038)  returns 0x00 (0000ms, 0394ms total)
T17420 000:838 JLINK_WriteReg(XPSR, 0x01000000)  returns 0x00 (0000ms, 0394ms total)
T17420 000:838 JLINK_WriteReg(MSP, 0x20000800)  returns 0x00 (0000ms, 0394ms total)
T17420 000:838 JLINK_WriteReg(PSP, 0x20000800)  returns 0x00 (0000ms, 0394ms total)
T17420 000:838 JLINK_WriteReg(CFBP, 0x00000000)  returns 0x00 (0000ms, 0394ms total)
T17420 000:838 JLINK_SetBPEx(Addr = 0x20000000, Type = 0xFFFFFFF2) -- CPU_ReadMem(2 bytes @ 0x20000000)  returns 0x00000004 (0001ms, 0395ms total)
T17420 000:839 JLINK_Go() -- CPU_WriteMem(2 bytes @ 0x20000000) -- CPU_ReadMem(4 bytes @ 0xE0001000) (0003ms, 0398ms total)
T17420 000:842 JLINK_IsHalted() -- CPU_ReadMem(2 bytes @ 0x20000000)  returns TRUE (0005ms, 0403ms total)
T17420 000:847 JLINK_ReadReg(R15 (PC))  returns 0x20000000 (0000ms, 0398ms total)
T17420 000:848 JLINK_ClrBPEx(BPHandle = 0x00000004)  returns 0x00 (0000ms, 0398ms total)
T17420 000:848 JLINK_ReadReg(R0)  returns 0x00000000 (0000ms, 0398ms total)
T17420 000:848 JLINK_WriteMem(0x20000164, 0x0400 Bytes, ...) - Data: 70 2D 00 20 15 02 00 08 C9 05 00 08 15 07 00 08 ... -- CPU_WriteMem(1024 bytes @ 0x20000164)  returns 0x400 (0013ms, 0411ms total)
T17420 000:861 JLINK_WriteReg(R0, 0x08000000)  returns 0x00 (0000ms, 0411ms total)
T17420 000:861 JLINK_WriteReg(R1, 0x00000400)  returns 0x00 (0000ms, 0411ms total)
T17420 000:861 JLINK_WriteReg(R2, 0x20000164)  returns 0x00 (0000ms, 0411ms total)
T17420 000:861 JLINK_WriteReg(R3, 0x00000000)  returns 0x00 (0000ms, 0411ms total)
T17420 000:861 JLINK_WriteReg(R4, 0x00000000)  returns 0x00 (0001ms, 0412ms total)
T17420 000:862 JLINK_WriteReg(R5, 0x00000000)  returns 0x00 (0000ms, 0412ms total)
T17420 000:862 JLINK_WriteReg(R6, 0x00000000)  returns 0x00 (0000ms, 0412ms total)
T17420 000:862 JLINK_WriteReg(R7, 0x00000000)  returns 0x00 (0000ms, 0412ms total)
T17420 000:862 JLINK_WriteReg(R8, 0x00000000)  returns 0x00 (0000ms, 0412ms total)
T17420 000:862 JLINK_WriteReg(R9, 0x20000160)  returns 0x00 (0000ms, 0412ms total)
T17420 000:862 JLINK_WriteReg(R10, 0x00000000)  returns 0x00 (0000ms, 0412ms total)
T17420 000:862 JLINK_WriteReg(R11, 0x00000000)  returns 0x00 (0000ms, 0412ms total)
T17420 000:862 JLINK_WriteReg(R12, 0x00000000)  returns 0x00 (0000ms, 0412ms total)
T17420 000:862 JLINK_WriteReg(R13 (SP), 0x20000800)  returns 0x00 (0000ms, 0412ms total)
T17420 000:862 JLINK_WriteReg(R14, 0x20000001)  returns 0x00 (0000ms, 0412ms total)
T17420 000:862 JLINK_WriteReg(R15 (PC), 0x200000F4)  returns 0x00 (0000ms, 0412ms total)
T17420 000:862 JLINK_WriteReg(XPSR, 0x01000000)  returns 0x00 (0000ms, 0412ms total)
T17420 000:862 JLINK_WriteReg(MSP, 0x20000800)  returns 0x00 (0000ms, 0412ms total)
T17420 000:862 JLINK_WriteReg(PSP, 0x20000800)  returns 0x00 (0000ms, 0412ms total)
T17420 000:862 JLINK_WriteReg(CFBP, 0x00000000)  returns 0x00 (0000ms, 0412ms total)
T17420 000:862 JLINK_SetBPEx(Addr = 0x20000000, Type = 0xFFFFFFF2)  returns 0x00000005 (0000ms, 0412ms total)
T17420 000:862 JLINK_Go() -- CPU_ReadMem(4 bytes @ 0xE0001000) (0004ms, 0416ms total)
T17420 000:866 JLINK_IsHalted()  returns FALSE (0002ms, 0418ms total)
T17420 000:897 JLINK_IsHalted() -- CPU_ReadMem(2 bytes @ 0x20000000)  returns TRUE (0005ms, 0421ms total)
T17420 000:902 JLINK_ReadReg(R15 (PC))  returns 0x20000000 (0000ms, 0416ms total)
T17420 000:902 JLINK_ClrBPEx(BPHandle = 0x00000005)  returns 0x00 (0000ms, 0416ms total)
T17420 000:902 JLINK_ReadReg(R0)  returns 0x00000000 (0000ms, 0416ms total)
T17420 000:905 JLINK_WriteMem(0x20000164, 0x0400 Bytes, ...) - Data: 52 1C 0C 1E A1 F1 01 01 E9 D1 30 BD 01 46 00 20 ... -- CPU_WriteMem(1024 bytes @ 0x20000164)  returns 0x400 (0012ms, 0428ms total)
T17420 000:917 JLINK_WriteReg(R0, 0x08000400)  returns 0x00 (0000ms, 0428ms total)
T17420 000:917 JLINK_WriteReg(R1, 0x00000400)  returns 0x00 (0000ms, 0428ms total)
T17420 000:917 JLINK_WriteReg(R2, 0x20000164)  returns 0x00 (0000ms, 0428ms total)
T17420 000:917 JLINK_WriteReg(R3, 0x00000000)  returns 0x00 (0001ms, 0429ms total)
T17420 000:918 JLINK_WriteReg(R4, 0x00000000)  returns 0x00 (0000ms, 0429ms total)
T17420 000:918 JLINK_WriteReg(R5, 0x00000000)  returns 0x00 (0000ms, 0429ms total)
T17420 000:918 JLINK_WriteReg(R6, 0x00000000)  returns 0x00 (0000ms, 0429ms total)
T17420 000:918 JLINK_WriteReg(R7, 0x00000000)  returns 0x00 (0000ms, 0429ms total)
T17420 000:918 JLINK_WriteReg(R8, 0x00000000)  returns 0x00 (0000ms, 0429ms total)
T17420 000:918 JLINK_WriteReg(R9, 0x20000160)  returns 0x00 (0000ms, 0429ms total)
T17420 000:918 JLINK_WriteReg(R10, 0x00000000)  returns 0x00 (0000ms, 0429ms total)
T17420 000:918 JLINK_WriteReg(R11, 0x00000000)  returns 0x00 (0000ms, 0429ms total)
T17420 000:918 JLINK_WriteReg(R12, 0x00000000)  returns 0x00 (0000ms, 0429ms total)
T17420 000:918 JLINK_WriteReg(R13 (SP), 0x20000800)  returns 0x00 (0000ms, 0429ms total)
T17420 000:918 JLINK_WriteReg(R14, 0x20000001)  returns 0x00 (0000ms, 0429ms total)
T17420 000:918 JLINK_WriteReg(R15 (PC), 0x200000F4)  returns 0x00 (0000ms, 0429ms total)
T17420 000:918 JLINK_WriteReg(XPSR, 0x01000000)  returns 0x00 (0000ms, 0429ms total)
T17420 000:918 JLINK_WriteReg(MSP, 0x20000800)  returns 0x00 (0000ms, 0429ms total)
T17420 000:918 JLINK_WriteReg(PSP, 0x20000800)  returns 0x00 (0000ms, 0429ms total)
T17420 000:918 JLINK_WriteReg(CFBP, 0x00000000)  returns 0x00 (0000ms, 0429ms total)
T17420 000:918 JLINK_SetBPEx(Addr = 0x20000000, Type = 0xFFFFFFF2)  returns 0x00000006 (0000ms, 0429ms total)
T17420 000:918 JLINK_Go() -- CPU_ReadMem(4 bytes @ 0xE0001000) (0003ms, 0432ms total)
T17420 000:921 JLINK_IsHalted()  returns FALSE (0001ms, 0433ms total)
T17420 000:939 JLINK_IsHalted()  returns FALSE (0001ms, 0433ms total)
T17420 000:942 JLINK_IsHalted()  returns FALSE (0001ms, 0433ms total)
T17420 000:945 JLINK_IsHalted()  returns FALSE (0002ms, 0434ms total)
T17420 000:948 JLINK_IsHalted()  returns FALSE (0001ms, 0433ms total)
T17420 000:961 JLINK_IsHalted() -- CPU_ReadMem(2 bytes @ 0x20000000)  returns TRUE (0005ms, 0437ms total)
T17420 000:966 JLINK_ReadReg(R15 (PC))  returns 0x20000000 (0000ms, 0432ms total)
T17420 000:966 JLINK_ClrBPEx(BPHandle = 0x00000006)  returns 0x00 (0000ms, 0432ms total)
T17420 000:966 JLINK_ReadReg(R0)  returns 0x00000000 (0000ms, 0432ms total)
T17420 000:967 JLINK_WriteMem(0x20000164, 0x0400 Bytes, ...) - Data: 03 A8 07 F0 9C FA 01 22 11 46 4D 48 07 F0 4B FF ... -- CPU_WriteMem(1024 bytes @ 0x20000164)  returns 0x400 (0013ms, 0445ms total)
T17420 000:980 JLINK_WriteReg(R0, 0x08000800)  returns 0x00 (0000ms, 0445ms total)
T17420 000:980 JLINK_WriteReg(R1, 0x00000400)  returns 0x00 (0000ms, 0445ms total)
T17420 000:980 JLINK_WriteReg(R2, 0x20000164)  returns 0x00 (0000ms, 0445ms total)
T17420 000:980 JLINK_WriteReg(R3, 0x00000000)  returns 0x00 (0000ms, 0445ms total)
T17420 000:980 JLINK_WriteReg(R4, 0x00000000)  returns 0x00 (0000ms, 0445ms total)
T17420 000:980 JLINK_WriteReg(R5, 0x00000000)  returns 0x00 (0000ms, 0445ms total)
T17420 000:980 JLINK_WriteReg(R6, 0x00000000)  returns 0x00 (0000ms, 0445ms total)
T17420 000:981 JLINK_WriteReg(R7, 0x00000000)  returns 0x00 (0000ms, 0446ms total)
T17420 000:981 JLINK_WriteReg(R8, 0x00000000)  returns 0x00 (0000ms, 0446ms total)
T17420 000:981 JLINK_WriteReg(R9, 0x20000160)  returns 0x00 (0000ms, 0446ms total)
T17420 000:981 JLINK_WriteReg(R10, 0x00000000)  returns 0x00 (0000ms, 0446ms total)
T17420 000:981 JLINK_WriteReg(R11, 0x00000000)  returns 0x00 (0000ms, 0446ms total)
T17420 000:981 JLINK_WriteReg(R12, 0x00000000)  returns 0x00 (0000ms, 0446ms total)
T17420 000:981 JLINK_WriteReg(R13 (SP), 0x20000800)  returns 0x00 (0000ms, 0446ms total)
T17420 000:981 JLINK_WriteReg(R14, 0x20000001)  returns 0x00 (0000ms, 0446ms total)
T17420 000:981 JLINK_WriteReg(R15 (PC), 0x200000F4)  returns 0x00 (0000ms, 0446ms total)
T17420 000:981 JLINK_WriteReg(XPSR, 0x01000000)  returns 0x00 (0000ms, 0446ms total)
T17420 000:981 JLINK_WriteReg(MSP, 0x20000800)  returns 0x00 (0000ms, 0446ms total)
T17420 000:981 JLINK_WriteReg(PSP, 0x20000800)  returns 0x00 (0000ms, 0446ms total)
T17420 000:981 JLINK_WriteReg(CFBP, 0x00000000)  returns 0x00 (0000ms, 0446ms total)
T17420 000:981 JLINK_SetBPEx(Addr = 0x20000000, Type = 0xFFFFFFF2)  returns 0x00000007 (0000ms, 0446ms total)
T17420 000:981 JLINK_Go() -- CPU_ReadMem(4 bytes @ 0xE0001000) (0004ms, 0450ms total)
T17420 000:985 JLINK_IsHalted()  returns FALSE (0001ms, 0451ms total)
T17420 001:019 JLINK_IsHalted() -- CPU_ReadMem(2 bytes @ 0x20000000)  returns TRUE (0005ms, 0455ms total)
T17420 001:024 JLINK_ReadReg(R15 (PC))  returns 0x20000000 (0000ms, 0450ms total)
T17420 001:024 JLINK_ClrBPEx(BPHandle = 0x00000007)  returns 0x00 (0000ms, 0450ms total)
T17420 001:024 JLINK_ReadReg(R0)  returns 0x00000000 (0000ms, 0450ms total)
T17420 001:026 JLINK_WriteMem(0x20000164, 0x0400 Bytes, ...) - Data: 08 BD 08 B5 4F F4 C0 60 07 F0 94 F8 25 20 8D F8 ... -- CPU_WriteMem(1024 bytes @ 0x20000164)  returns 0x400 (0012ms, 0462ms total)
T17420 001:039 JLINK_WriteReg(R0, 0x08000C00)  returns 0x00 (0000ms, 0462ms total)
T17420 001:039 JLINK_WriteReg(R1, 0x00000400)  returns 0x00 (0000ms, 0462ms total)
T17420 001:039 JLINK_WriteReg(R2, 0x20000164)  returns 0x00 (0000ms, 0462ms total)
T17420 001:039 JLINK_WriteReg(R3, 0x00000000)  returns 0x00 (0000ms, 0462ms total)
T17420 001:039 JLINK_WriteReg(R4, 0x00000000)  returns 0x00 (0000ms, 0462ms total)
T17420 001:039 JLINK_WriteReg(R5, 0x00000000)  returns 0x00 (0000ms, 0462ms total)
T17420 001:039 JLINK_WriteReg(R6, 0x00000000)  returns 0x00 (0000ms, 0462ms total)
T17420 001:039 JLINK_WriteReg(R7, 0x00000000)  returns 0x00 (0000ms, 0462ms total)
T17420 001:039 JLINK_WriteReg(R8, 0x00000000)  returns 0x00 (0000ms, 0462ms total)
T17420 001:039 JLINK_WriteReg(R9, 0x20000160)  returns 0x00 (0000ms, 0462ms total)
T17420 001:039 JLINK_WriteReg(R10, 0x00000000)  returns 0x00 (0000ms, 0462ms total)
T17420 001:039 JLINK_WriteReg(R11, 0x00000000)  returns 0x00 (0000ms, 0462ms total)
T17420 001:039 JLINK_WriteReg(R12, 0x00000000)  returns 0x00 (0000ms, 0462ms total)
T17420 001:039 JLINK_WriteReg(R13 (SP), 0x20000800)  returns 0x00 (0000ms, 0462ms total)
T17420 001:039 JLINK_WriteReg(R14, 0x20000001)  returns 0x00 (0000ms, 0462ms total)
T17420 001:039 JLINK_WriteReg(R15 (PC), 0x200000F4)  returns 0x00 (0000ms, 0462ms total)
T17420 001:039 JLINK_WriteReg(XPSR, 0x01000000)  returns 0x00 (0000ms, 0462ms total)
T17420 001:040 JLINK_WriteReg(MSP, 0x20000800)  returns 0x00 (0000ms, 0463ms total)
T17420 001:040 JLINK_WriteReg(PSP, 0x20000800)  returns 0x00 (0000ms, 0463ms total)
T17420 001:040 JLINK_WriteReg(CFBP, 0x00000000)  returns 0x00 (0000ms, 0463ms total)
T17420 001:040 JLINK_SetBPEx(Addr = 0x20000000, Type = 0xFFFFFFF2)  returns 0x00000008 (0000ms, 0463ms total)
T17420 001:040 JLINK_Go() -- CPU_ReadMem(4 bytes @ 0xE0001000) (0003ms, 0466ms total)
T17420 001:043 JLINK_IsHalted()  returns FALSE (0001ms, 0467ms total)
T17420 001:052 JLINK_IsHalted()  returns FALSE (0001ms, 0467ms total)
T17420 001:055 JLINK_IsHalted()  returns FALSE (0000ms, 0466ms total)
T17420 001:064 JLINK_IsHalted()  returns FALSE (0002ms, 0468ms total)
T17420 001:067 JLINK_IsHalted()  returns FALSE (0001ms, 0467ms total)
T17420 001:070 JLINK_IsHalted()  returns FALSE (0001ms, 0467ms total)
T17420 001:072 JLINK_IsHalted()  returns FALSE (0001ms, 0467ms total)
T17420 001:082 JLINK_IsHalted() -- CPU_ReadMem(2 bytes @ 0x20000000)  returns TRUE (0004ms, 0470ms total)
T17420 001:086 JLINK_ReadReg(R15 (PC))  returns 0x20000000 (0000ms, 0466ms total)
T17420 001:086 JLINK_ClrBPEx(BPHandle = 0x00000008)  returns 0x00 (0000ms, 0466ms total)
T17420 001:086 JLINK_ReadReg(R0)  returns 0x00000000 (0000ms, 0466ms total)
T17420 001:088 JLINK_WriteMem(0x20000164, 0x0400 Bytes, ...) - Data: BB 49 81 F8 88 00 08 46 C0 7A 31 28 56 D0 06 DC ... -- CPU_WriteMem(1024 bytes @ 0x20000164)  returns 0x400 (0013ms, 0479ms total)
T17420 001:102 JLINK_WriteReg(R0, 0x08001000)  returns 0x00 (0000ms, 0479ms total)
T17420 001:102 JLINK_WriteReg(R1, 0x00000400)  returns 0x00 (0000ms, 0479ms total)
T17420 001:102 JLINK_WriteReg(R2, 0x20000164)  returns 0x00 (0000ms, 0479ms total)
T17420 001:102 JLINK_WriteReg(R3, 0x00000000)  returns 0x00 (0000ms, 0479ms total)
T17420 001:102 JLINK_WriteReg(R4, 0x00000000)  returns 0x00 (0000ms, 0479ms total)
T17420 001:102 JLINK_WriteReg(R5, 0x00000000)  returns 0x00 (0000ms, 0479ms total)
T17420 001:102 JLINK_WriteReg(R6, 0x00000000)  returns 0x00 (0000ms, 0479ms total)
T17420 001:102 JLINK_WriteReg(R7, 0x00000000)  returns 0x00 (0000ms, 0479ms total)
T17420 001:102 JLINK_WriteReg(R8, 0x00000000)  returns 0x00 (0000ms, 0479ms total)
T17420 001:102 JLINK_WriteReg(R9, 0x20000160)  returns 0x00 (0000ms, 0479ms total)
T17420 001:102 JLINK_WriteReg(R10, 0x00000000)  returns 0x00 (0000ms, 0479ms total)
T17420 001:102 JLINK_WriteReg(R11, 0x00000000)  returns 0x00 (0001ms, 0480ms total)
T17420 001:103 JLINK_WriteReg(R12, 0x00000000)  returns 0x00 (0000ms, 0480ms total)
T17420 001:103 JLINK_WriteReg(R13 (SP), 0x20000800)  returns 0x00 (0000ms, 0480ms total)
T17420 001:103 JLINK_WriteReg(R14, 0x20000001)  returns 0x00 (0000ms, 0480ms total)
T17420 001:103 JLINK_WriteReg(R15 (PC), 0x200000F4)  returns 0x00 (0000ms, 0480ms total)
T17420 001:103 JLINK_WriteReg(XPSR, 0x01000000)  returns 0x00 (0000ms, 0480ms total)
T17420 001:103 JLINK_WriteReg(MSP, 0x20000800)  returns 0x00 (0000ms, 0480ms total)
T17420 001:103 JLINK_WriteReg(PSP, 0x20000800)  returns 0x00 (0000ms, 0480ms total)
T17420 001:103 JLINK_WriteReg(CFBP, 0x00000000)  returns 0x00 (0000ms, 0480ms total)
T17420 001:103 JLINK_SetBPEx(Addr = 0x20000000, Type = 0xFFFFFFF2)  returns 0x00000009 (0000ms, 0480ms total)
T17420 001:103 JLINK_Go() -- CPU_ReadMem(4 bytes @ 0xE0001000) (0003ms, 0483ms total)
T17420 001:106 JLINK_IsHalted()  returns FALSE (0001ms, 0484ms total)
T17420 001:119 JLINK_IsHalted()  returns FALSE (0001ms, 0484ms total)
T17420 001:122 JLINK_IsHalted()  returns FALSE (0001ms, 0484ms total)
T17420 001:124 JLINK_IsHalted()  returns FALSE (0001ms, 0484ms total)
T17420 001:143 JLINK_IsHalted() -- CPU_ReadMem(2 bytes @ 0x20000000)  returns TRUE (0004ms, 0487ms total)
T17420 001:147 JLINK_ReadReg(R15 (PC))  returns 0x20000000 (0000ms, 0483ms total)
T17420 001:147 JLINK_ClrBPEx(BPHandle = 0x00000009)  returns 0x00 (0000ms, 0483ms total)
T17420 001:147 JLINK_ReadReg(R0)  returns 0x00000000 (0000ms, 0483ms total)
T17420 001:149 JLINK_WriteMem(0x20000164, 0x0400 Bytes, ...) - Data: F6 E7 05 20 F4 E7 06 20 F2 E7 07 20 F0 E7 03 20 ... -- CPU_WriteMem(1024 bytes @ 0x20000164)  returns 0x400 (0012ms, 0495ms total)
T17420 001:161 JLINK_WriteReg(R0, 0x08001400)  returns 0x00 (0000ms, 0495ms total)
T17420 001:161 JLINK_WriteReg(R1, 0x00000400)  returns 0x00 (0001ms, 0496ms total)
T17420 001:162 JLINK_WriteReg(R2, 0x20000164)  returns 0x00 (0000ms, 0496ms total)
T17420 001:162 JLINK_WriteReg(R3, 0x00000000)  returns 0x00 (0000ms, 0496ms total)
T17420 001:162 JLINK_WriteReg(R4, 0x00000000)  returns 0x00 (0000ms, 0496ms total)
T17420 001:162 JLINK_WriteReg(R5, 0x00000000)  returns 0x00 (0000ms, 0496ms total)
T17420 001:162 JLINK_WriteReg(R6, 0x00000000)  returns 0x00 (0000ms, 0496ms total)
T17420 001:162 JLINK_WriteReg(R7, 0x00000000)  returns 0x00 (0000ms, 0496ms total)
T17420 001:162 JLINK_WriteReg(R8, 0x00000000)  returns 0x00 (0000ms, 0496ms total)
T17420 001:162 JLINK_WriteReg(R9, 0x20000160)  returns 0x00 (0000ms, 0496ms total)
T17420 001:162 JLINK_WriteReg(R10, 0x00000000)  returns 0x00 (0000ms, 0496ms total)
T17420 001:162 JLINK_WriteReg(R11, 0x00000000)  returns 0x00 (0000ms, 0496ms total)
T17420 001:162 JLINK_WriteReg(R12, 0x00000000)  returns 0x00 (0000ms, 0496ms total)
T17420 001:162 JLINK_WriteReg(R13 (SP), 0x20000800)  returns 0x00 (0000ms, 0496ms total)
T17420 001:162 JLINK_WriteReg(R14, 0x20000001)  returns 0x00 (0000ms, 0496ms total)
T17420 001:162 JLINK_WriteReg(R15 (PC), 0x200000F4)  returns 0x00 (0000ms, 0496ms total)
T17420 001:162 JLINK_WriteReg(XPSR, 0x01000000)  returns 0x00 (0000ms, 0496ms total)
T17420 001:162 JLINK_WriteReg(MSP, 0x20000800)  returns 0x00 (0000ms, 0496ms total)
T17420 001:162 JLINK_WriteReg(PSP, 0x20000800)  returns 0x00 (0000ms, 0496ms total)
T17420 001:162 JLINK_WriteReg(CFBP, 0x00000000)  returns 0x00 (0000ms, 0496ms total)
T17420 001:162 JLINK_SetBPEx(Addr = 0x20000000, Type = 0xFFFFFFF2)  returns 0x0000000A (0001ms, 0497ms total)
T17420 001:163 JLINK_Go() -- CPU_ReadMem(4 bytes @ 0xE0001000) (0002ms, 0499ms total)
T17420 001:165 JLINK_IsHalted()  returns FALSE (0001ms, 0500ms total)
T17420 001:174 JLINK_IsHalted()  returns FALSE (0001ms, 0500ms total)
T17420 001:177 JLINK_IsHalted()  returns FALSE (0001ms, 0500ms total)
T17420 001:180 JLINK_IsHalted()  returns FALSE (0001ms, 0500ms total)
T17420 001:183 JLINK_IsHalted()  returns FALSE (0001ms, 0500ms total)
T17420 001:186 JLINK_IsHalted()  returns FALSE (0000ms, 0499ms total)
T17420 001:194 JLINK_IsHalted()  returns FALSE (0001ms, 0500ms total)
T17420 001:197 JLINK_IsHalted() -- CPU_ReadMem(2 bytes @ 0x20000000)  returns TRUE (0004ms, 0503ms total)
T17420 001:201 JLINK_ReadReg(R15 (PC))  returns 0x20000000 (0000ms, 0499ms total)
T17420 001:201 JLINK_ClrBPEx(BPHandle = 0x0000000A)  returns 0x00 (0000ms, 0499ms total)
T17420 001:201 JLINK_ReadReg(R0)  returns 0x00000000 (0000ms, 0499ms total)
T17420 001:203 JLINK_WriteMem(0x20000164, 0x0400 Bytes, ...) - Data: 88 69 00 21 0A F0 94 FC 17 D0 4F F4 96 71 64 20 ... -- CPU_WriteMem(1024 bytes @ 0x20000164)  returns 0x400 (0012ms, 0511ms total)
T17420 001:216 JLINK_WriteReg(R0, 0x08001800)  returns 0x00 (0000ms, 0511ms total)
T17420 001:216 JLINK_WriteReg(R1, 0x00000400)  returns 0x00 (0000ms, 0511ms total)
T17420 001:216 JLINK_WriteReg(R2, 0x20000164)  returns 0x00 (0000ms, 0511ms total)
T17420 001:216 JLINK_WriteReg(R3, 0x00000000)  returns 0x00 (0000ms, 0511ms total)
T17420 001:216 JLINK_WriteReg(R4, 0x00000000)  returns 0x00 (0000ms, 0511ms total)
T17420 001:216 JLINK_WriteReg(R5, 0x00000000)  returns 0x00 (0000ms, 0511ms total)
T17420 001:216 JLINK_WriteReg(R6, 0x00000000)  returns 0x00 (0000ms, 0511ms total)
T17420 001:216 JLINK_WriteReg(R7, 0x00000000)  returns 0x00 (0000ms, 0511ms total)
T17420 001:216 JLINK_WriteReg(R8, 0x00000000)  returns 0x00 (0000ms, 0511ms total)
T17420 001:216 JLINK_WriteReg(R9, 0x20000160)  returns 0x00 (0000ms, 0511ms total)
T17420 001:216 JLINK_WriteReg(R10, 0x00000000)  returns 0x00 (0000ms, 0511ms total)
T17420 001:216 JLINK_WriteReg(R11, 0x00000000)  returns 0x00 (0000ms, 0511ms total)
T17420 001:216 JLINK_WriteReg(R12, 0x00000000)  returns 0x00 (0000ms, 0511ms total)
T17420 001:216 JLINK_WriteReg(R13 (SP), 0x20000800)  returns 0x00 (0000ms, 0511ms total)
T17420 001:216 JLINK_WriteReg(R14, 0x20000001)  returns 0x00 (0000ms, 0511ms total)
T17420 001:216 JLINK_WriteReg(R15 (PC), 0x200000F4)  returns 0x00 (0000ms, 0511ms total)
T17420 001:216 JLINK_WriteReg(XPSR, 0x01000000)  returns 0x00 (0000ms, 0511ms total)
T17420 001:216 JLINK_WriteReg(MSP, 0x20000800)  returns 0x00 (0000ms, 0511ms total)
T17420 001:216 JLINK_WriteReg(PSP, 0x20000800)  returns 0x00 (0000ms, 0511ms total)
T17420 001:216 JLINK_WriteReg(CFBP, 0x00000000)  returns 0x00 (0001ms, 0512ms total)
T17420 001:217 JLINK_SetBPEx(Addr = 0x20000000, Type = 0xFFFFFFF2)  returns 0x0000000B (0000ms, 0512ms total)
T17420 001:217 JLINK_Go() -- CPU_ReadMem(4 bytes @ 0xE0001000) (0004ms, 0516ms total)
T17420 001:221 JLINK_IsHalted()  returns FALSE (0001ms, 0517ms total)
T17420 001:239 JLINK_IsHalted()  returns FALSE (0001ms, 0517ms total)
T17420 001:242 JLINK_IsHalted()  returns FALSE (0000ms, 0516ms total)
T17420 001:252 JLINK_IsHalted() -- CPU_ReadMem(2 bytes @ 0x20000000)  returns TRUE (0005ms, 0521ms total)
T17420 001:257 JLINK_ReadReg(R15 (PC))  returns 0x20000000 (0000ms, 0516ms total)
T17420 001:257 JLINK_ClrBPEx(BPHandle = 0x0000000B)  returns 0x00 (0000ms, 0516ms total)
T17420 001:257 JLINK_ReadReg(R0)  returns 0x00000000 (0000ms, 0516ms total)
T17420 001:259 JLINK_WriteMem(0x20000164, 0x0400 Bytes, ...) - Data: 00 20 01 F0 D7 FA 26 E0 83 4A 11 6D 7F 4A D0 68 ... -- CPU_WriteMem(1024 bytes @ 0x20000164)  returns 0x400 (0013ms, 0529ms total)
T17420 001:272 JLINK_WriteReg(R0, 0x08001C00)  returns 0x00 (0000ms, 0529ms total)
T17420 001:272 JLINK_WriteReg(R1, 0x00000400)  returns 0x00 (0000ms, 0529ms total)
T17420 001:272 JLINK_WriteReg(R2, 0x20000164)  returns 0x00 (0001ms, 0530ms total)
T17420 001:273 JLINK_WriteReg(R3, 0x00000000)  returns 0x00 (0000ms, 0530ms total)
T17420 001:273 JLINK_WriteReg(R4, 0x00000000)  returns 0x00 (0000ms, 0530ms total)
T17420 001:273 JLINK_WriteReg(R5, 0x00000000)  returns 0x00 (0000ms, 0530ms total)
T17420 001:273 JLINK_WriteReg(R6, 0x00000000)  returns 0x00 (0000ms, 0530ms total)
T17420 001:273 JLINK_WriteReg(R7, 0x00000000)  returns 0x00 (0000ms, 0530ms total)
T17420 001:273 JLINK_WriteReg(R8, 0x00000000)  returns 0x00 (0000ms, 0530ms total)
T17420 001:273 JLINK_WriteReg(R9, 0x20000160)  returns 0x00 (0000ms, 0530ms total)
T17420 001:273 JLINK_WriteReg(R10, 0x00000000)  returns 0x00 (0000ms, 0530ms total)
T17420 001:273 JLINK_WriteReg(R11, 0x00000000)  returns 0x00 (0000ms, 0530ms total)
T17420 001:273 JLINK_WriteReg(R12, 0x00000000)  returns 0x00 (0000ms, 0530ms total)
T17420 001:273 JLINK_WriteReg(R13 (SP), 0x20000800)  returns 0x00 (0000ms, 0530ms total)
T17420 001:273 JLINK_WriteReg(R14, 0x20000001)  returns 0x00 (0000ms, 0530ms total)
T17420 001:273 JLINK_WriteReg(R15 (PC), 0x200000F4)  returns 0x00 (0000ms, 0530ms total)
T17420 001:273 JLINK_WriteReg(XPSR, 0x01000000)  returns 0x00 (0000ms, 0530ms total)
T17420 001:273 JLINK_WriteReg(MSP, 0x20000800)  returns 0x00 (0000ms, 0530ms total)
T17420 001:273 JLINK_WriteReg(PSP, 0x20000800)  returns 0x00 (0000ms, 0530ms total)
T17420 001:273 JLINK_WriteReg(CFBP, 0x00000000)  returns 0x00 (0000ms, 0530ms total)
T17420 001:273 JLINK_SetBPEx(Addr = 0x20000000, Type = 0xFFFFFFF2)  returns 0x0000000C (0000ms, 0530ms total)
T17420 001:273 JLINK_Go() -- CPU_ReadMem(4 bytes @ 0xE0001000) (0003ms, 0533ms total)
T17420 001:276 JLINK_IsHalted()  returns FALSE (0001ms, 0534ms total)
T17420 001:285 JLINK_IsHalted()  returns FALSE (0001ms, 0534ms total)
T17420 001:288 JLINK_IsHalted()  returns FALSE (0001ms, 0534ms total)
T17420 001:297 JLINK_IsHalted()  returns FALSE (0002ms, 0535ms total)
T17420 001:300 JLINK_IsHalted()  returns FALSE (0001ms, 0534ms total)
T17420 001:303 JLINK_IsHalted()  returns FALSE (0001ms, 0534ms total)
T17420 001:306 JLINK_IsHalted()  returns FALSE (0001ms, 0534ms total)
T17420 001:309 JLINK_IsHalted() -- CPU_ReadMem(2 bytes @ 0x20000000)  returns TRUE (0004ms, 0537ms total)
T17420 001:313 JLINK_ReadReg(R15 (PC))  returns 0x20000000 (0000ms, 0533ms total)
T17420 001:313 JLINK_ClrBPEx(BPHandle = 0x0000000C)  returns 0x00 (0000ms, 0533ms total)
T17420 001:313 JLINK_ReadReg(R0)  returns 0x00000000 (0001ms, 0534ms total)
T17420 001:315 JLINK_WriteMem(0x20000164, 0x0400 Bytes, ...) - Data: 00 41 CD E9 02 01 09 F0 AD FC 05 46 F6 49 38 46 ... -- CPU_WriteMem(1024 bytes @ 0x20000164)  returns 0x400 (0012ms, 0546ms total)
T17420 001:327 JLINK_WriteReg(R0, 0x08002000)  returns 0x00 (0001ms, 0547ms total)
T17420 001:328 JLINK_WriteReg(R1, 0x00000400)  returns 0x00 (0000ms, 0547ms total)
T17420 001:328 JLINK_WriteReg(R2, 0x20000164)  returns 0x00 (0000ms, 0547ms total)
T17420 001:328 JLINK_WriteReg(R3, 0x00000000)  returns 0x00 (0000ms, 0547ms total)
T17420 001:328 JLINK_WriteReg(R4, 0x00000000)  returns 0x00 (0000ms, 0547ms total)
T17420 001:328 JLINK_WriteReg(R5, 0x00000000)  returns 0x00 (0000ms, 0547ms total)
T17420 001:328 JLINK_WriteReg(R6, 0x00000000)  returns 0x00 (0000ms, 0547ms total)
T17420 001:328 JLINK_WriteReg(R7, 0x00000000)  returns 0x00 (0000ms, 0547ms total)
T17420 001:328 JLINK_WriteReg(R8, 0x00000000)  returns 0x00 (0000ms, 0547ms total)
T17420 001:328 JLINK_WriteReg(R9, 0x20000160)  returns 0x00 (0000ms, 0547ms total)
T17420 001:328 JLINK_WriteReg(R10, 0x00000000)  returns 0x00 (0000ms, 0547ms total)
T17420 001:328 JLINK_WriteReg(R11, 0x00000000)  returns 0x00 (0000ms, 0547ms total)
T17420 001:328 JLINK_WriteReg(R12, 0x00000000)  returns 0x00 (0000ms, 0547ms total)
T17420 001:328 JLINK_WriteReg(R13 (SP), 0x20000800)  returns 0x00 (0000ms, 0547ms total)
T17420 001:328 JLINK_WriteReg(R14, 0x20000001)  returns 0x00 (0000ms, 0547ms total)
T17420 001:328 JLINK_WriteReg(R15 (PC), 0x200000F4)  returns 0x00 (0000ms, 0547ms total)
T17420 001:328 JLINK_WriteReg(XPSR, 0x01000000)  returns 0x00 (0000ms, 0547ms total)
T17420 001:328 JLINK_WriteReg(MSP, 0x20000800)  returns 0x00 (0000ms, 0547ms total)
T17420 001:328 JLINK_WriteReg(PSP, 0x20000800)  returns 0x00 (0000ms, 0547ms total)
T17420 001:328 JLINK_WriteReg(CFBP, 0x00000000)  returns 0x00 (0001ms, 0548ms total)
T17420 001:329 JLINK_SetBPEx(Addr = 0x20000000, Type = 0xFFFFFFF2)  returns 0x0000000D (0000ms, 0548ms total)
T17420 001:329 JLINK_Go() -- CPU_ReadMem(4 bytes @ 0xE0001000) (0002ms, 0550ms total)
T17420 001:331 JLINK_IsHalted()  returns FALSE (0002ms, 0552ms total)
T17420 001:353 JLINK_IsHalted()  returns FALSE (0001ms, 0551ms total)
T17420 001:356 JLINK_IsHalted()  returns FALSE (0001ms, 0551ms total)
T17420 001:359 JLINK_IsHalted()  returns FALSE (0000ms, 0550ms total)
T17420 001:369 JLINK_IsHalted() -- CPU_ReadMem(2 bytes @ 0x20000000)  returns TRUE (0004ms, 0554ms total)
T17420 001:373 JLINK_ReadReg(R15 (PC))  returns 0x20000000 (0000ms, 0550ms total)
T17420 001:373 JLINK_ClrBPEx(BPHandle = 0x0000000D)  returns 0x00 (0000ms, 0550ms total)
T17420 001:373 JLINK_ReadReg(R0)  returns 0x00000000 (0000ms, 0550ms total)
T17420 001:374 JLINK_WriteMem(0x20000164, 0x0400 Bytes, ...) - Data: 33 33 53 40 00 10 01 40 30 00 00 20 4F 4B 00 00 ... -- CPU_WriteMem(1024 bytes @ 0x20000164)  returns 0x400 (0013ms, 0563ms total)
T17420 001:387 JLINK_WriteReg(R0, 0x08002400)  returns 0x00 (0000ms, 0563ms total)
T17420 001:387 JLINK_WriteReg(R1, 0x00000400)  returns 0x00 (0000ms, 0563ms total)
T17420 001:387 JLINK_WriteReg(R2, 0x20000164)  returns 0x00 (0000ms, 0563ms total)
T17420 001:387 JLINK_WriteReg(R3, 0x00000000)  returns 0x00 (0000ms, 0563ms total)
T17420 001:387 JLINK_WriteReg(R4, 0x00000000)  returns 0x00 (0000ms, 0563ms total)
T17420 001:387 JLINK_WriteReg(R5, 0x00000000)  returns 0x00 (0000ms, 0563ms total)
T17420 001:387 JLINK_WriteReg(R6, 0x00000000)  returns 0x00 (0000ms, 0563ms total)
T17420 001:388 JLINK_WriteReg(R7, 0x00000000)  returns 0x00 (0000ms, 0563ms total)
T17420 001:388 JLINK_WriteReg(R8, 0x00000000)  returns 0x00 (0000ms, 0563ms total)
T17420 001:388 JLINK_WriteReg(R9, 0x20000160)  returns 0x00 (0000ms, 0563ms total)
T17420 001:388 JLINK_WriteReg(R10, 0x00000000)  returns 0x00 (0000ms, 0563ms total)
T17420 001:388 JLINK_WriteReg(R11, 0x00000000)  returns 0x00 (0000ms, 0563ms total)
T17420 001:388 JLINK_WriteReg(R12, 0x00000000)  returns 0x00 (0000ms, 0563ms total)
T17420 001:388 JLINK_WriteReg(R13 (SP), 0x20000800)  returns 0x00 (0000ms, 0563ms total)
T17420 001:388 JLINK_WriteReg(R14, 0x20000001)  returns 0x00 (0000ms, 0563ms total)
T17420 001:388 JLINK_WriteReg(R15 (PC), 0x200000F4)  returns 0x00 (0000ms, 0563ms total)
T17420 001:388 JLINK_WriteReg(XPSR, 0x01000000)  returns 0x00 (0000ms, 0563ms total)
T17420 001:388 JLINK_WriteReg(MSP, 0x20000800)  returns 0x00 (0000ms, 0563ms total)
T17420 001:388 JLINK_WriteReg(PSP, 0x20000800)  returns 0x00 (0000ms, 0563ms total)
T17420 001:388 JLINK_WriteReg(CFBP, 0x00000000)  returns 0x00 (0000ms, 0563ms total)
T17420 001:388 JLINK_SetBPEx(Addr = 0x20000000, Type = 0xFFFFFFF2)  returns 0x0000000E (0000ms, 0563ms total)
T17420 001:388 JLINK_Go() -- CPU_ReadMem(4 bytes @ 0xE0001000) (0004ms, 0567ms total)
T17420 001:392 JLINK_IsHalted()  returns FALSE (0001ms, 0568ms total)
T17420 001:400 JLINK_IsHalted()  returns FALSE (0001ms, 0568ms total)
T17420 001:410 JLINK_IsHalted()  returns FALSE (0000ms, 0567ms total)
T17420 001:412 JLINK_IsHalted()  returns FALSE (0000ms, 0567ms total)
T17420 001:415 JLINK_IsHalted()  returns FALSE (0001ms, 0568ms total)
T17420 001:418 JLINK_IsHalted()  returns FALSE (0001ms, 0568ms total)
T17420 001:429 JLINK_IsHalted() -- CPU_ReadMem(2 bytes @ 0x20000000)  returns TRUE (0004ms, 0571ms total)
T17420 001:433 JLINK_ReadReg(R15 (PC))  returns 0x20000000 (0000ms, 0567ms total)
T17420 001:433 JLINK_ClrBPEx(BPHandle = 0x0000000E)  returns 0x00 (0000ms, 0567ms total)
T17420 001:433 JLINK_ReadReg(R0)  returns 0x00000000 (0000ms, 0567ms total)
T17420 001:435 JLINK_WriteMem(0x20000164, 0x0400 Bytes, ...) - Data: 05 D2 13 48 00 78 C0 43 11 49 08 70 02 E0 00 20 ... -- CPU_WriteMem(1024 bytes @ 0x20000164)  returns 0x400 (0013ms, 0580ms total)
T17420 001:448 JLINK_WriteReg(R0, 0x08002800)  returns 0x00 (0000ms, 0580ms total)
T17420 001:448 JLINK_WriteReg(R1, 0x00000400)  returns 0x00 (0000ms, 0580ms total)
T17420 001:448 JLINK_WriteReg(R2, 0x20000164)  returns 0x00 (0000ms, 0580ms total)
T17420 001:448 JLINK_WriteReg(R3, 0x00000000)  returns 0x00 (0000ms, 0580ms total)
T17420 001:448 JLINK_WriteReg(R4, 0x00000000)  returns 0x00 (0000ms, 0580ms total)
T17420 001:448 JLINK_WriteReg(R5, 0x00000000)  returns 0x00 (0000ms, 0580ms total)
T17420 001:448 JLINK_WriteReg(R6, 0x00000000)  returns 0x00 (0000ms, 0580ms total)
T17420 001:448 JLINK_WriteReg(R7, 0x00000000)  returns 0x00 (0000ms, 0580ms total)
T17420 001:448 JLINK_WriteReg(R8, 0x00000000)  returns 0x00 (0000ms, 0580ms total)
T17420 001:448 JLINK_WriteReg(R9, 0x20000160)  returns 0x00 (0000ms, 0580ms total)
T17420 001:448 JLINK_WriteReg(R10, 0x00000000)  returns 0x00 (0001ms, 0581ms total)
T17420 001:449 JLINK_WriteReg(R11, 0x00000000)  returns 0x00 (0000ms, 0581ms total)
T17420 001:449 JLINK_WriteReg(R12, 0x00000000)  returns 0x00 (0000ms, 0581ms total)
T17420 001:449 JLINK_WriteReg(R13 (SP), 0x20000800)  returns 0x00 (0000ms, 0581ms total)
T17420 001:449 JLINK_WriteReg(R14, 0x20000001)  returns 0x00 (0000ms, 0581ms total)
T17420 001:449 JLINK_WriteReg(R15 (PC), 0x200000F4)  returns 0x00 (0000ms, 0581ms total)
T17420 001:449 JLINK_WriteReg(XPSR, 0x01000000)  returns 0x00 (0000ms, 0581ms total)
T17420 001:449 JLINK_WriteReg(MSP, 0x20000800)  returns 0x00 (0000ms, 0581ms total)
T17420 001:449 JLINK_WriteReg(PSP, 0x20000800)  returns 0x00 (0000ms, 0581ms total)
T17420 001:449 JLINK_WriteReg(CFBP, 0x00000000)  returns 0x00 (0000ms, 0581ms total)
T17420 001:449 JLINK_SetBPEx(Addr = 0x20000000, Type = 0xFFFFFFF2)  returns 0x0000000F (0000ms, 0581ms total)
T17420 001:449 JLINK_Go() -- CPU_ReadMem(4 bytes @ 0xE0001000) (0003ms, 0584ms total)
T17420 001:452 JLINK_IsHalted()  returns FALSE (0000ms, 0584ms total)
T17420 001:476 JLINK_IsHalted()  returns FALSE (0000ms, 0584ms total)
T17420 001:478 JLINK_IsHalted()  returns FALSE (0000ms, 0584ms total)
T17420 001:480 JLINK_IsHalted()  returns FALSE (0000ms, 0584ms total)
T17420 001:482 JLINK_IsHalted()  returns FALSE (0000ms, 0584ms total)
T17420 001:490 JLINK_IsHalted() -- CPU_ReadMem(2 bytes @ 0x20000000)  returns TRUE (0004ms, 0588ms total)
T17420 001:494 JLINK_ReadReg(R15 (PC))  returns 0x20000000 (0000ms, 0584ms total)
T17420 001:494 JLINK_ClrBPEx(BPHandle = 0x0000000F)  returns 0x00 (0000ms, 0584ms total)
T17420 001:494 JLINK_ReadReg(R0)  returns 0x00000000 (0000ms, 0584ms total)
T17420 001:495 JLINK_WriteMem(0x20000164, 0x0400 Bytes, ...) - Data: 10 B5 FF F7 C8 FF 40 21 64 48 04 F0 22 FE 80 21 ... -- CPU_WriteMem(1024 bytes @ 0x20000164)  returns 0x400 (0013ms, 0597ms total)
T17420 001:508 JLINK_WriteReg(R0, 0x08002C00)  returns 0x00 (0000ms, 0597ms total)
T17420 001:508 JLINK_WriteReg(R1, 0x00000400)  returns 0x00 (0000ms, 0597ms total)
T17420 001:508 JLINK_WriteReg(R2, 0x20000164)  returns 0x00 (0000ms, 0597ms total)
T17420 001:508 JLINK_WriteReg(R3, 0x00000000)  returns 0x00 (0000ms, 0597ms total)
T17420 001:508 JLINK_WriteReg(R4, 0x00000000)  returns 0x00 (0000ms, 0597ms total)
T17420 001:508 JLINK_WriteReg(R5, 0x00000000)  returns 0x00 (0000ms, 0597ms total)
T17420 001:509 JLINK_WriteReg(R6, 0x00000000)  returns 0x00 (0000ms, 0598ms total)
T17420 001:509 JLINK_WriteReg(R7, 0x00000000)  returns 0x00 (0000ms, 0598ms total)
T17420 001:509 JLINK_WriteReg(R8, 0x00000000)  returns 0x00 (0000ms, 0598ms total)
T17420 001:509 JLINK_WriteReg(R9, 0x20000160)  returns 0x00 (0000ms, 0598ms total)
T17420 001:509 JLINK_WriteReg(R10, 0x00000000)  returns 0x00 (0000ms, 0598ms total)
T17420 001:509 JLINK_WriteReg(R11, 0x00000000)  returns 0x00 (0000ms, 0598ms total)
T17420 001:509 JLINK_WriteReg(R12, 0x00000000)  returns 0x00 (0000ms, 0598ms total)
T17420 001:509 JLINK_WriteReg(R13 (SP), 0x20000800)  returns 0x00 (0000ms, 0598ms total)
T17420 001:509 JLINK_WriteReg(R14, 0x20000001)  returns 0x00 (0000ms, 0598ms total)
T17420 001:509 JLINK_WriteReg(R15 (PC), 0x200000F4)  returns 0x00 (0000ms, 0598ms total)
T17420 001:509 JLINK_WriteReg(XPSR, 0x01000000)  returns 0x00 (0000ms, 0598ms total)
T17420 001:509 JLINK_WriteReg(MSP, 0x20000800)  returns 0x00 (0000ms, 0598ms total)
